
T35F4 000:390 SEGGER J-Link V5.10q Log File (0002ms, 0314ms total)
T35F4 000:390 DLL Compiled: Mar  4 2016 16:03:41 (0002ms, 0314ms total)
T35F4 000:390 Logging started @ 2019-10-22 16:36 (0002ms, 0314ms total)
T35F4 000:392 JLINK_SetWarnOutHandler(...) (0000ms, 0314ms total)
T35F4 000:392 JLINK_OpenEx(...)
Firmware: J-Link V9 compiled Mar 29 2018 17:46:13
Hardware: V9.40
S/N: 59409561
Feature(s): RDI, GDB, FlashDL, FlashBP, JFlash  returns O.K. (0299ms, 0613ms total)
T35F4 000:691 JLINK_SetErrorOutHandler(...) (0000ms, 0613ms total)
T35F4 000:691 JLINK_ExecCommand("ProjectFile = "C:\Users\WHUTWZH\Desktop\simpleBGC32-source\source\USER\JLinkSettings.ini"", ...)  returns 0x00 (0002ms, 0615ms total)
T35F4 000:703 JLINK_ExecCommand("Device = STM32F103VE", ...)Device "STM32F103VE" selected.  returns 0x00 (0013ms, 0628ms total)
T35F4 000:716 JLINK_ExecCommand("DisableConnectionTimeout", ...)  returns 0x01 (0000ms, 0628ms total)
T35F4 000:717 JLINK_GetHardwareVersion()  returns 0x16F30 (0000ms, 0628ms total)
T35F4 000:717 JLINK_GetDLLVersion()  returns 51017 (0000ms, 0628ms total)
T35F4 000:717 JLINK_GetFirmwareString(...) (0000ms, 0628ms total)
T35F4 000:771 JLINK_GetDLLVersion()  returns 51017 (0000ms, 0628ms total)
T35F4 000:771 JLINK_GetCompileDateTime() (0000ms, 0628ms total)
T35F4 000:782 JLINK_GetFirmwareString(...) (0000ms, 0628ms total)
T35F4 000:794 JLINK_GetHardwareVersion()  returns 0x16F30 (0000ms, 0628ms total)
T35F4 000:842 JLINK_TIF_Select(JLINKARM_TIF_SWD)  returns 0x00 (0004ms, 0632ms total)
T35F4 000:846 JLINK_SetSpeed(5000) (0001ms, 0633ms total)
T35F4 000:847 JLINK_GetId() >0x108 TIF>Found SWD-DP with ID 0x1BA01477 >0x0D TIF> >0x28 TIF> >0x0D TIF> >0x28 TIF> >0x0D TIF> >0x28 TIF> >0x0D TIF> >0x28 TIF> >0x0D TIF> >0x21 TIF> >0x0D TIF> >0x28 TIF> >0x0D TIF> >0x28 TIF> >0x0D TIF> >0x28 TIF> >0x0D TIF> >0x21 TIF> >0x0D TIF> >0x21 TIF> >0x0D TIF> >0x28 TIF> >0x0D TIF> >0x21 TIF> >0x0D TIF> >0x21 TIF> >0x0D TIF> >0x28 TIF> >0x0D TIF> >0x21 TIF> >0x0D TIF> >0x21 TIF> >0x0D TIF> >0x28 TIF> >0x0D TIF> >0x21 TIF> >0x0D TIF> >0x21 TIF> >0x0D TIF>
 >0x28 TIF> >0x0D TIF> >0x21 TIF> >0x0D TIF> >0x21 TIF> >0x0D TIF> >0x28 TIF> >0x0D TIF> >0x21 TIF> >0x0D TIF> >0x21 TIF> >0x108 TIF>Found SWD-DP with ID 0x1BA01477 >0x0D TIF> >0x28 TIF> >0x0D TIF> >0x28 TIF> >0x0D TIF> >0x28 TIF> >0x0D TIF> >0x28 TIF> >0x0D TIF> >0x21 TIF> >0x0D TIF> >0x28 TIF> >0x0D TIF> >0x28 TIF> >0x0D TIF> >0x21 TIF> >0x0D TIF> >0x21 TIF> >0x0D TIF> >0x21 TIF> >0x0D TIF> >0x28 TIF> >0x0D TIF> >0x28 TIF> >0x0D TIF> >0x28 TIF> >0x0D TIF> >0x21 TIF> >0x0D TIF> >0x21 TIF> >0x0D TIF>
 >0x28 TIF> >0x0D TIF> >0x21 TIF> >0x0D TIF> >0x21 TIF>Found Cortex-M3 r1p1, Little endian. -- CPU_ReadMem(4 bytes @ 0xE000EDF0) -- CPU_ReadMem(4 bytes @ 0xE0002000)FPUnit: 6 code (BP) slots and 2 literal slots -- CPU_ReadMem(4 bytes @ 0xE000EDFC) -- CPU_ReadMem(4 bytes @ 0xE0001000) -- CPU_WriteMem(4 bytes @ 0xE0001000) -- CPU_ReadMem(4 bytes @ 0xE000ED88) -- CPU_WriteMem(4 bytes @ 0xE000ED88) -- CPU_ReadMem(4 bytes @ 0xE000ED88) -- CPU_WriteMem(4 bytes @ 0xE000ED88)CoreSight components:
ROMTbl 0 @ E00FF000 -- CPU_ReadMem(16 bytes @ 0xE00FF000) -- CPU_ReadMem(16 bytes @ 0xE000EFF0) -- CPU_ReadMem(16 bytes @ 0xE000EFE0)ROMTbl 0 [0]: FFF0F000, CID: B105E00D, PID: 001BB000 SCS -- CPU_ReadMem(16 bytes @ 0xE0001FF0) -- CPU_ReadMem(16 bytes @ 0xE0001FE0)ROMTbl 0 [1]: FFF02000, CID: B105E00D, PID: 001BB002 DWT -- CPU_ReadMem(16 bytes @ 0xE0002FF0) -- CPU_ReadMem(16 bytes @ 0xE0002FE0)ROMTbl 0 [2]: FFF03000, CID: B105E00D, PID: 000BB003 FPB -- CPU_ReadMem(16 bytes @ 0xE0000FF0)
 -- CPU_ReadMem(16 bytes @ 0xE0000FE0)ROMTbl 0 [3]: FFF01000, CID: B105E00D, PID: 001BB001 ITM -- CPU_ReadMem(16 bytes @ 0xE00FF010) -- CPU_ReadMem(16 bytes @ 0xE0040FF0) -- CPU_ReadMem(16 bytes @ 0xE0040FE0)ROMTbl 0 [4]: FFF41000, CID: B105900D, PID: 001BB923 TPIU-Lite -- CPU_ReadMem(16 bytes @ 0xE0041FF0) -- CPU_ReadMem(16 bytes @ 0xE0041FE0)ROMTbl 0 [5]: FFF42000, CID: B105900D, PID: 101BB924 ETM-M3 >0x0D TIF> >0x21 TIF>  returns 0x1BA01477 (0214ms, 0847ms total)
T35F4 001:061 JLINK_GetDLLVersion()  returns 51017 (0000ms, 0847ms total)
T35F4 001:061 JLINK_CORE_GetFound()  returns 0x30000FF (0000ms, 0847ms total)
T35F4 001:061 JLINK_GetDebugInfo(0x100) -- Value=0xE00FF000  returns 0x00 (0000ms, 0847ms total)
T35F4 001:067 JLINK_GetDebugInfo(0x100) -- Value=0xE00FF000  returns 0x00 (0000ms, 0847ms total)
T35F4 001:067 JLINK_GetDebugInfo(0x101) -- Value=0xE0041000  returns 0x00 (0000ms, 0847ms total)
T35F4 001:067 JLINK_GetDebugInfo(0x102) -- Value=0x00000000  returns 0x00 (0000ms, 0847ms total)
T35F4 001:067 JLINK_GetDebugInfo(0x103) -- Value=0xE0040000  returns 0x00 (0001ms, 0848ms total)
T35F4 001:068 JLINK_GetDebugInfo(0x104) -- Value=0xE0000000  returns 0x00 (0000ms, 0848ms total)
T35F4 001:068 JLINK_GetDebugInfo(0x105) -- Value=0xE0001000  returns 0x00 (0000ms, 0848ms total)
T35F4 001:068 JLINK_GetDebugInfo(0x106) -- Value=0xE0002000  returns 0x00 (0000ms, 0848ms total)
T35F4 001:068 JLINK_GetDebugInfo(0x107) -- Value=0xE000E000  returns 0x00 (0000ms, 0848ms total)
T35F4 001:068 JLINK_GetDebugInfo(0x10C) -- Value=0xE000EDF0  returns 0x00 (0000ms, 0848ms total)
T35F4 001:068 JLINK_ReadMemU32(0xE000ED00, 0x0001 Items, ...) -- CPU is running -- CPU_ReadMem(4 bytes @ 0xE000ED00) - Data: 31 C2 1F 41  returns 0x01 (0001ms, 0849ms total)
T35F4 001:069 JLINK_SetResetType(JLINKARM_RESET_TYPE_NORMAL)  returns JLINKARM_RESET_TYPE_NORMAL (0000ms, 0849ms total)
T35F4 001:069 JLINK_Reset() -- CPU is running -- CPU_WriteMem(4 bytes @ 0xE000EDF0) -- CPU is running -- CPU_WriteMem(4 bytes @ 0xE000EDFC) >0x35 TIF> -- CPU is running -- CPU_WriteMem(4 bytes @ 0xE000ED0C) -- CPU is running -- CPU_ReadMem(4 bytes @ 0xE000EDF0) -- CPU is running -- CPU_ReadMem(4 bytes @ 0xE000EDF0) -- CPU is running -- CPU_WriteMem(4 bytes @ 0xE000EDF0) -- CPU is running -- CPU_WriteMem(4 bytes @ 0xE000EDFC) -- CPU is running -- CPU_ReadMem(4 bytes @ 0xE000EDF0)
 -- CPU_WriteMem(4 bytes @ 0xE0002000) -- CPU_ReadMem(4 bytes @ 0xE000EDFC) -- CPU_ReadMem(4 bytes @ 0xE0001000) (0023ms, 0872ms total)
T35F4 001:092 JLINK_Halt()  returns 0x00 (0000ms, 0872ms total)
T35F4 001:092 JLINK_IsHalted()  returns TRUE (0000ms, 0872ms total)
T35F4 001:092 JLINK_ReadMemU32(0xE000EDF0, 0x0001 Items, ...) -- CPU_ReadMem(4 bytes @ 0xE000EDF0) - Data: 03 00 03 00  returns 0x01 (0001ms, 0873ms total)
T35F4 001:093 JLINK_WriteU32(0xE000EDF0, 0xA05F0003) -- CPU_WriteMem(4 bytes @ 0xE000EDF0)  returns 0x00 (0001ms, 0874ms total)
T35F4 001:094 JLINK_WriteU32(0xE000EDFC, 0x01000000) -- CPU_WriteMem(4 bytes @ 0xE000EDFC)  returns 0x00 (0001ms, 0875ms total)
T35F4 001:135 JLINK_GetHWStatus(...)  returns 0x00 (0001ms, 0876ms total)
T35F4 001:168 JLINK_GetNumBPUnits(Type = 0xFFFFFF00)  returns 0x06 (0001ms, 0877ms total)
T35F4 001:169 JLINK_GetNumBPUnits(Type = 0xF0)  returns 0x2000 (0000ms, 0877ms total)
T35F4 001:169 JLINK_GetNumWPUnits()  returns 0x04 (0000ms, 0877ms total)
T35F4 001:196 JLINK_GetSpeed()  returns 0xFA0 (0000ms, 0877ms total)
T35F4 001:213 JLINK_ReadMemU32(0xE000E004, 0x0001 Items, ...) -- CPU_ReadMem(4 bytes @ 0xE000E004) - Data: 01 00 00 00  returns 0x01 (0001ms, 0878ms total)
T35F4 001:214 JLINK_ReadMemU32(0xE000E004, 0x0001 Items, ...) -- CPU_ReadMem(4 bytes @ 0xE000E004) - Data: 01 00 00 00  returns 0x01 (0001ms, 0879ms total)
T35F4 001:215 JLINK_WriteMem(0xE0001000, 0x001C Bytes, ...) - Data: 01 00 00 00 00 00 00 00 00 00 00 00 00 00 00 00 ... -- CPU_WriteMem(28 bytes @ 0xE0001000)  returns 0x1C (0001ms, 0880ms total)
T35F4 001:216 JLINK_ReadMem (0xE0001000, 0x001C Bytes, ...) -- CPU_ReadMem(28 bytes @ 0xE0001000) - Data: 01 00 00 40 00 00 00 00 00 00 00 00 00 00 00 00 ...  returns 0x00 (0001ms, 0881ms total)
T35F4 001:217 JLINK_Halt()  returns 0x00 (0000ms, 0881ms total)
T35F4 001:217 JLINK_IsHalted()  returns TRUE (0000ms, 0881ms total)
T35F4 001:224 JLINK_WriteMem(0x20000000, 0x0164 Bytes, ...) - Data: 00 BE 0A E0 0D 78 2D 06 68 40 08 24 40 00 00 D3 ... -- CPU_WriteMem(356 bytes @ 0x20000000)  returns 0x164 (0003ms, 0884ms total)
T35F4 001:227 JLINK_WriteReg(R0, 0x08000000)  returns 0x00 (0000ms, 0884ms total)
T35F4 001:227 JLINK_WriteReg(R1, 0x00B71B00)  returns 0x00 (0000ms, 0884ms total)
T35F4 001:227 JLINK_WriteReg(R2, 0x00000001)  returns 0x00 (0000ms, 0884ms total)
T35F4 001:227 JLINK_WriteReg(R3, 0x00000000)  returns 0x00 (0000ms, 0884ms total)
T35F4 001:227 JLINK_WriteReg(R4, 0x00000000)  returns 0x00 (0000ms, 0884ms total)
T35F4 001:227 JLINK_WriteReg(R5, 0x00000000)  returns 0x00 (0000ms, 0884ms total)
T35F4 001:227 JLINK_WriteReg(R6, 0x00000000)  returns 0x00 (0000ms, 0884ms total)
T35F4 001:227 JLINK_WriteReg(R7, 0x00000000)  returns 0x00 (0000ms, 0884ms total)
T35F4 001:227 JLINK_WriteReg(R8, 0x00000000)  returns 0x00 (0000ms, 0884ms total)
T35F4 001:227 JLINK_WriteReg(R9, 0x20000160)  returns 0x00 (0000ms, 0884ms total)
T35F4 001:227 JLINK_WriteReg(R10, 0x00000000)  returns 0x00 (0000ms, 0884ms total)
T35F4 001:227 JLINK_WriteReg(R11, 0x00000000)  returns 0x00 (0000ms, 0884ms total)
T35F4 001:227 JLINK_WriteReg(R12, 0x00000000)  returns 0x00 (0000ms, 0884ms total)
T35F4 001:227 JLINK_WriteReg(R13 (SP), 0x20000800)  returns 0x00 (0000ms, 0884ms total)
T35F4 001:227 JLINK_WriteReg(R14, 0x20000001)  returns 0x00 (0001ms, 0885ms total)
T35F4 001:228 JLINK_WriteReg(R15 (PC), 0x20000038)  returns 0x00 (0000ms, 0885ms total)
T35F4 001:228 JLINK_WriteReg(XPSR, 0x01000000)  returns 0x00 (0000ms, 0885ms total)
T35F4 001:228 JLINK_WriteReg(MSP, 0x20000800)  returns 0x00 (0000ms, 0885ms total)
T35F4 001:228 JLINK_WriteReg(PSP, 0x20000800)  returns 0x00 (0000ms, 0885ms total)
T35F4 001:228 JLINK_WriteReg(CFBP, 0x00000000)  returns 0x00 (0000ms, 0885ms total)
T35F4 001:228 JLINK_SetBPEx(Addr = 0x20000000, Type = 0xFFFFFFF2) -- CPU_ReadMem(2 bytes @ 0x20000000)  returns 0x00000001 (0001ms, 0886ms total)
T35F4 001:229 JLINK_Go() -- CPU_WriteMem(2 bytes @ 0x20000000) -- CPU_ReadMem(4 bytes @ 0xE0001000) -- CPU_WriteMem(4 bytes @ 0xE0002008) -- CPU_WriteMem(4 bytes @ 0xE000200C) -- CPU_WriteMem(4 bytes @ 0xE0002010) -- CPU_WriteMem(4 bytes @ 0xE0002014) -- CPU_WriteMem(4 bytes @ 0xE0002018) -- CPU_WriteMem(4 bytes @ 0xE000201C) -- CPU_WriteMem(4 bytes @ 0xE0001004) (0006ms, 0892ms total)
T35F4 001:235 JLINK_IsHalted() -- CPU_ReadMem(2 bytes @ 0x20000000)  returns TRUE (0004ms, 0896ms total)
T35F4 001:239 JLINK_ReadReg(R15 (PC))  returns 0x20000000 (0000ms, 0892ms total)
T35F4 001:239 JLINK_ClrBPEx(BPHandle = 0x00000001)  returns 0x00 (0000ms, 0892ms total)
T35F4 001:239 JLINK_ReadReg(R0)  returns 0x00000000 (0000ms, 0892ms total)
T35F4 001:240 JLINK_WriteReg(R0, 0x08000000)  returns 0x00 (0000ms, 0892ms total)
T35F4 001:240 JLINK_WriteReg(R1, 0x00B71B00)  returns 0x00 (0000ms, 0892ms total)
T35F4 001:240 JLINK_WriteReg(R2, 0x00000001)  returns 0x00 (0000ms, 0892ms total)
T35F4 001:240 JLINK_WriteReg(R3, 0x00000000)  returns 0x00 (0000ms, 0892ms total)
T35F4 001:240 JLINK_WriteReg(R4, 0x00000000)  returns 0x00 (0000ms, 0892ms total)
T35F4 001:240 JLINK_WriteReg(R5, 0x00000000)  returns 0x00 (0000ms, 0892ms total)
T35F4 001:240 JLINK_WriteReg(R6, 0x00000000)  returns 0x00 (0000ms, 0892ms total)
T35F4 001:240 JLINK_WriteReg(R7, 0x00000000)  returns 0x00 (0000ms, 0892ms total)
T35F4 001:240 JLINK_WriteReg(R8, 0x00000000)  returns 0x00 (0000ms, 0892ms total)
T35F4 001:241 JLINK_WriteReg(R9, 0x20000160)  returns 0x00 (0000ms, 0893ms total)
T35F4 001:241 JLINK_WriteReg(R10, 0x00000000)  returns 0x00 (0000ms, 0893ms total)
T35F4 001:241 JLINK_WriteReg(R11, 0x00000000)  returns 0x00 (0000ms, 0893ms total)
T35F4 001:241 JLINK_WriteReg(R12, 0x00000000)  returns 0x00 (0000ms, 0893ms total)
T35F4 001:241 JLINK_WriteReg(R13 (SP), 0x20000800)  returns 0x00 (0000ms, 0893ms total)
T35F4 001:241 JLINK_WriteReg(R14, 0x20000001)  returns 0x00 (0000ms, 0893ms total)
T35F4 001:241 JLINK_WriteReg(R15 (PC), 0x2000007C)  returns 0x00 (0000ms, 0893ms total)
T35F4 001:241 JLINK_WriteReg(XPSR, 0x01000000)  returns 0x00 (0000ms, 0893ms total)
T35F4 001:241 JLINK_WriteReg(MSP, 0x20000800)  returns 0x00 (0000ms, 0893ms total)
T35F4 001:241 JLINK_WriteReg(PSP, 0x20000800)  returns 0x00 (0000ms, 0893ms total)
T35F4 001:241 JLINK_WriteReg(CFBP, 0x00000000)  returns 0x00 (0001ms, 0894ms total)
T35F4 001:242 JLINK_SetBPEx(Addr = 0x20000000, Type = 0xFFFFFFF2)  returns 0x00000002 (0000ms, 0894ms total)
T35F4 001:242 JLINK_Go() -- CPU_ReadMem(4 bytes @ 0xE0001000) (0003ms, 0897ms total)
T35F4 001:245 JLINK_IsHalted()  returns FALSE (0001ms, 0898ms total)
T35F4 001:473 JLINK_IsHalted() -- CPU_ReadMem(2 bytes @ 0x20000000)  returns TRUE (0003ms, 0900ms total)
T35F4 001:476 JLINK_ReadReg(R15 (PC))  returns 0x20000000 (0001ms, 0898ms total)
T35F4 001:477 JLINK_ClrBPEx(BPHandle = 0x00000002)  returns 0x00 (0000ms, 0898ms total)
T35F4 001:477 JLINK_ReadReg(R0)  returns 0x00000000 (0000ms, 0898ms total)
T35F4 001:532 JLINK_WriteReg(R0, 0x00000001)  returns 0x00 (0000ms, 0898ms total)
T35F4 001:532 JLINK_WriteReg(R1, 0x00B71B00)  returns 0x00 (0000ms, 0898ms total)
T35F4 001:532 JLINK_WriteReg(R2, 0x00000001)  returns 0x00 (0000ms, 0898ms total)
T35F4 001:532 JLINK_WriteReg(R3, 0x00000000)  returns 0x00 (0000ms, 0898ms total)
T35F4 001:532 JLINK_WriteReg(R4, 0x00000000)  returns 0x00 (0000ms, 0898ms total)
T35F4 001:532 JLINK_WriteReg(R5, 0x00000000)  returns 0x00 (0000ms, 0898ms total)
T35F4 001:532 JLINK_WriteReg(R6, 0x00000000)  returns 0x00 (0000ms, 0898ms total)
T35F4 001:532 JLINK_WriteReg(R7, 0x00000000)  returns 0x00 (0000ms, 0898ms total)
T35F4 001:532 JLINK_WriteReg(R8, 0x00000000)  returns 0x00 (0000ms, 0898ms total)
T35F4 001:532 JLINK_WriteReg(R9, 0x20000160)  returns 0x00 (0000ms, 0898ms total)
T35F4 001:532 JLINK_WriteReg(R10, 0x00000000)  returns 0x00 (0000ms, 0898ms total)
T35F4 001:532 JLINK_WriteReg(R11, 0x00000000)  returns 0x00 (0000ms, 0898ms total)
T35F4 001:532 JLINK_WriteReg(R12, 0x00000000)  returns 0x00 (0000ms, 0898ms total)
T35F4 001:532 JLINK_WriteReg(R13 (SP), 0x20000800)  returns 0x00 (0000ms, 0898ms total)
T35F4 001:532 JLINK_WriteReg(R14, 0x20000001)  returns 0x00 (0001ms, 0899ms total)
T35F4 001:533 JLINK_WriteReg(R15 (PC), 0x2000006A)  returns 0x00 (0000ms, 0899ms total)
T35F4 001:533 JLINK_WriteReg(XPSR, 0x01000000)  returns 0x00 (0000ms, 0899ms total)
T35F4 001:533 JLINK_WriteReg(MSP, 0x20000800)  returns 0x00 (0000ms, 0899ms total)
T35F4 001:533 JLINK_WriteReg(PSP, 0x20000800)  returns 0x00 (0000ms, 0899ms total)
T35F4 001:533 JLINK_WriteReg(CFBP, 0x00000000)  returns 0x00 (0000ms, 0899ms total)
T35F4 001:533 JLINK_SetBPEx(Addr = 0x20000000, Type = 0xFFFFFFF2)  returns 0x00000003 (0000ms, 0899ms total)
T35F4 001:533 JLINK_Go() -- CPU_ReadMem(4 bytes @ 0xE0001000) (0003ms, 0902ms total)
T35F4 001:536 JLINK_IsHalted() -- CPU_ReadMem(2 bytes @ 0x20000000)  returns TRUE (0003ms, 0905ms total)
T35F4 001:539 JLINK_ReadReg(R15 (PC))  returns 0x20000000 (0000ms, 0902ms total)
T35F4 001:539 JLINK_ClrBPEx(BPHandle = 0x00000003)  returns 0x00 (0000ms, 0902ms total)
T35F4 001:539 JLINK_ReadReg(R0)  returns 0x00000000 (0000ms, 0902ms total)
T35F4 001:549 JLINK_WriteMem(0x20000000, 0x0164 Bytes, ...) - Data: 00 BE 0A E0 0D 78 2D 06 68 40 08 24 40 00 00 D3 ... -- CPU_WriteMem(356 bytes @ 0x20000000)  returns 0x164 (0002ms, 0904ms total)
T35F4 001:551 JLINK_WriteReg(R0, 0x08000000)  returns 0x00 (0000ms, 0904ms total)
T35F4 001:551 JLINK_WriteReg(R1, 0x00B71B00)  returns 0x00 (0000ms, 0904ms total)
T35F4 001:551 JLINK_WriteReg(R2, 0x00000002)  returns 0x00 (0000ms, 0904ms total)
T35F4 001:551 JLINK_WriteReg(R3, 0x00000000)  returns 0x00 (0000ms, 0904ms total)
T35F4 001:551 JLINK_WriteReg(R4, 0x00000000)  returns 0x00 (0000ms, 0904ms total)
T35F4 001:551 JLINK_WriteReg(R5, 0x00000000)  returns 0x00 (0000ms, 0904ms total)
T35F4 001:551 JLINK_WriteReg(R6, 0x00000000)  returns 0x00 (0000ms, 0904ms total)
T35F4 001:551 JLINK_WriteReg(R7, 0x00000000)  returns 0x00 (0000ms, 0904ms total)
T35F4 001:551 JLINK_WriteReg(R8, 0x00000000)  returns 0x00 (0000ms, 0904ms total)
T35F4 001:551 JLINK_WriteReg(R9, 0x20000160)  returns 0x00 (0000ms, 0904ms total)
T35F4 001:551 JLINK_WriteReg(R10, 0x00000000)  returns 0x00 (0000ms, 0904ms total)
T35F4 001:551 JLINK_WriteReg(R11, 0x00000000)  returns 0x00 (0000ms, 0904ms total)
T35F4 001:551 JLINK_WriteReg(R12, 0x00000000)  returns 0x00 (0001ms, 0905ms total)
T35F4 001:552 JLINK_WriteReg(R13 (SP), 0x20000800)  returns 0x00 (0000ms, 0905ms total)
T35F4 001:552 JLINK_WriteReg(R14, 0x20000001)  returns 0x00 (0000ms, 0905ms total)
T35F4 001:552 JLINK_WriteReg(R15 (PC), 0x20000038)  returns 0x00 (0000ms, 0905ms total)
T35F4 001:552 JLINK_WriteReg(XPSR, 0x01000000)  returns 0x00 (0000ms, 0905ms total)
T35F4 001:552 JLINK_WriteReg(MSP, 0x20000800)  returns 0x00 (0000ms, 0905ms total)
T35F4 001:552 JLINK_WriteReg(PSP, 0x20000800)  returns 0x00 (0000ms, 0905ms total)
T35F4 001:552 JLINK_WriteReg(CFBP, 0x00000000)  returns 0x00 (0000ms, 0905ms total)
T35F4 001:552 JLINK_SetBPEx(Addr = 0x20000000, Type = 0xFFFFFFF2) -- CPU_ReadMem(2 bytes @ 0x20000000)  returns 0x00000004 (0001ms, 0906ms total)
T35F4 001:553 JLINK_Go() -- CPU_WriteMem(2 bytes @ 0x20000000) -- CPU_ReadMem(4 bytes @ 0xE0001000) (0004ms, 0910ms total)
T35F4 001:557 JLINK_IsHalted() -- CPU_ReadMem(2 bytes @ 0x20000000)  returns TRUE (0004ms, 0914ms total)
T35F4 001:561 JLINK_ReadReg(R15 (PC))  returns 0x20000000 (0000ms, 0910ms total)
T35F4 001:561 JLINK_ClrBPEx(BPHandle = 0x00000004)  returns 0x00 (0000ms, 0910ms total)
T35F4 001:561 JLINK_ReadReg(R0)  returns 0x00000000 (0000ms, 0910ms total)
T35F4 001:561 JLINK_WriteMem(0x20000164, 0x0400 Bytes, ...) - Data: D8 1E 00 20 65 01 00 08 99 4E 00 08 9B 4E 00 08 ... -- CPU_WriteMem(1024 bytes @ 0x20000164)  returns 0x400 (0004ms, 0914ms total)
T35F4 001:565 JLINK_WriteReg(R0, 0x08000000)  returns 0x00 (0000ms, 0914ms total)
T35F4 001:565 JLINK_WriteReg(R1, 0x00000400)  returns 0x00 (0000ms, 0914ms total)
T35F4 001:565 JLINK_WriteReg(R2, 0x20000164)  returns 0x00 (0000ms, 0914ms total)
T35F4 001:565 JLINK_WriteReg(R3, 0x00000000)  returns 0x00 (0001ms, 0915ms total)
T35F4 001:566 JLINK_WriteReg(R4, 0x00000000)  returns 0x00 (0000ms, 0915ms total)
T35F4 001:566 JLINK_WriteReg(R5, 0x00000000)  returns 0x00 (0000ms, 0915ms total)
T35F4 001:566 JLINK_WriteReg(R6, 0x00000000)  returns 0x00 (0000ms, 0915ms total)
T35F4 001:566 JLINK_WriteReg(R7, 0x00000000)  returns 0x00 (0000ms, 0915ms total)
T35F4 001:566 JLINK_WriteReg(R8, 0x00000000)  returns 0x00 (0000ms, 0915ms total)
T35F4 001:566 JLINK_WriteReg(R9, 0x20000160)  returns 0x00 (0000ms, 0915ms total)
T35F4 001:566 JLINK_WriteReg(R10, 0x00000000)  returns 0x00 (0000ms, 0915ms total)
T35F4 001:566 JLINK_WriteReg(R11, 0x00000000)  returns 0x00 (0000ms, 0915ms total)
T35F4 001:566 JLINK_WriteReg(R12, 0x00000000)  returns 0x00 (0000ms, 0915ms total)
T35F4 001:566 JLINK_WriteReg(R13 (SP), 0x20000800)  returns 0x00 (0000ms, 0915ms total)
T35F4 001:566 JLINK_WriteReg(R14, 0x20000001)  returns 0x00 (0000ms, 0915ms total)
T35F4 001:566 JLINK_WriteReg(R15 (PC), 0x200000F4)  returns 0x00 (0000ms, 0915ms total)
T35F4 001:566 JLINK_WriteReg(XPSR, 0x01000000)  returns 0x00 (0000ms, 0915ms total)
T35F4 001:566 JLINK_WriteReg(MSP, 0x20000800)  returns 0x00 (0000ms, 0915ms total)
T35F4 001:566 JLINK_WriteReg(PSP, 0x20000800)  returns 0x00 (0000ms, 0915ms total)
T35F4 001:566 JLINK_WriteReg(CFBP, 0x00000000)  returns 0x00 (0000ms, 0915ms total)
T35F4 001:566 JLINK_SetBPEx(Addr = 0x20000000, Type = 0xFFFFFFF2)  returns 0x00000005 (0000ms, 0915ms total)
T35F4 001:566 JLINK_Go() -- CPU_ReadMem(4 bytes @ 0xE0001000) (0003ms, 0918ms total)
T35F4 001:569 JLINK_IsHalted()  returns FALSE (0001ms, 0919ms total)
T35F4 001:587 JLINK_IsHalted()  returns FALSE (0000ms, 0918ms total)
T35F4 001:589 JLINK_IsHalted()  returns FALSE (0000ms, 0918ms total)
T35F4 001:591 JLINK_IsHalted()  returns FALSE (0000ms, 0918ms total)
T35F4 001:593 JLINK_IsHalted()  returns FALSE (0000ms, 0918ms total)
T35F4 001:595 JLINK_IsHalted()  returns FALSE (0000ms, 0918ms total)
T35F4 001:598 JLINK_IsHalted()  returns FALSE (0000ms, 0918ms total)
T35F4 001:600 JLINK_IsHalted() -- CPU_ReadMem(2 bytes @ 0x20000000)  returns TRUE (0003ms, 0921ms total)
T35F4 001:603 JLINK_ReadReg(R15 (PC))  returns 0x20000000 (0000ms, 0918ms total)
T35F4 001:603 JLINK_ClrBPEx(BPHandle = 0x00000005)  returns 0x00 (0000ms, 0918ms total)
T35F4 001:603 JLINK_ReadReg(R0)  returns 0x00000000 (0000ms, 0918ms total)
T35F4 001:605 JLINK_WriteMem(0x20000164, 0x0400 Bytes, ...) - Data: DB FB 46 49 48 60 88 68 56 49 28 31 03 F0 D4 FB ... -- CPU_WriteMem(1024 bytes @ 0x20000164)  returns 0x400 (0004ms, 0922ms total)
T35F4 001:609 JLINK_WriteReg(R0, 0x08000400)  returns 0x00 (0000ms, 0922ms total)
T35F4 001:609 JLINK_WriteReg(R1, 0x00000400)  returns 0x00 (0000ms, 0922ms total)
T35F4 001:609 JLINK_WriteReg(R2, 0x20000164)  returns 0x00 (0000ms, 0922ms total)
T35F4 001:609 JLINK_WriteReg(R3, 0x00000000)  returns 0x00 (0000ms, 0922ms total)
T35F4 001:609 JLINK_WriteReg(R4, 0x00000000)  returns 0x00 (0000ms, 0922ms total)
T35F4 001:609 JLINK_WriteReg(R5, 0x00000000)  returns 0x00 (0000ms, 0922ms total)
T35F4 001:609 JLINK_WriteReg(R6, 0x00000000)  returns 0x00 (0000ms, 0922ms total)
T35F4 001:609 JLINK_WriteReg(R7, 0x00000000)  returns 0x00 (0000ms, 0922ms total)
T35F4 001:609 JLINK_WriteReg(R8, 0x00000000)  returns 0x00 (0000ms, 0922ms total)
T35F4 001:609 JLINK_WriteReg(R9, 0x20000160)  returns 0x00 (0000ms, 0922ms total)
T35F4 001:609 JLINK_WriteReg(R10, 0x00000000)  returns 0x00 (0000ms, 0922ms total)
T35F4 001:609 JLINK_WriteReg(R11, 0x00000000)  returns 0x00 (0000ms, 0922ms total)
T35F4 001:609 JLINK_WriteReg(R12, 0x00000000)  returns 0x00 (0000ms, 0922ms total)
T35F4 001:609 JLINK_WriteReg(R13 (SP), 0x20000800)  returns 0x00 (0000ms, 0922ms total)
T35F4 001:610 JLINK_WriteReg(R14, 0x20000001)  returns 0x00 (0000ms, 0922ms total)
T35F4 001:610 JLINK_WriteReg(R15 (PC), 0x200000F4)  returns 0x00 (0000ms, 0922ms total)
T35F4 001:610 JLINK_WriteReg(XPSR, 0x01000000)  returns 0x00 (0000ms, 0922ms total)
T35F4 001:610 JLINK_WriteReg(MSP, 0x20000800)  returns 0x00 (0000ms, 0922ms total)
T35F4 001:610 JLINK_WriteReg(PSP, 0x20000800)  returns 0x00 (0000ms, 0922ms total)
T35F4 001:610 JLINK_WriteReg(CFBP, 0x00000000)  returns 0x00 (0000ms, 0922ms total)
T35F4 001:610 JLINK_SetBPEx(Addr = 0x20000000, Type = 0xFFFFFFF2)  returns 0x00000006 (0000ms, 0922ms total)
T35F4 001:610 JLINK_Go() -- CPU_ReadMem(4 bytes @ 0xE0001000) (0003ms, 0925ms total)
T35F4 001:613 JLINK_IsHalted()  returns FALSE (0001ms, 0926ms total)
T35F4 001:615 JLINK_IsHalted()  returns FALSE (0001ms, 0926ms total)
T35F4 001:618 JLINK_IsHalted()  returns FALSE (0000ms, 0925ms total)
T35F4 001:620 JLINK_IsHalted()  returns FALSE (0000ms, 0925ms total)
T35F4 001:622 JLINK_IsHalted()  returns FALSE (0000ms, 0925ms total)
T35F4 001:624 JLINK_IsHalted()  returns FALSE (0000ms, 0925ms total)
T35F4 001:626 JLINK_IsHalted()  returns FALSE (0000ms, 0925ms total)
T35F4 001:628 JLINK_IsHalted()  returns FALSE (0000ms, 0925ms total)
T35F4 001:630 JLINK_IsHalted()  returns FALSE (0000ms, 0925ms total)
T35F4 001:641 JLINK_IsHalted()  returns FALSE (0000ms, 0925ms total)
T35F4 001:643 JLINK_IsHalted()  returns FALSE (0000ms, 0925ms total)
T35F4 001:645 JLINK_IsHalted() -- CPU_ReadMem(2 bytes @ 0x20000000)  returns TRUE (0003ms, 0928ms total)
T35F4 001:648 JLINK_ReadReg(R15 (PC))  returns 0x20000000 (0000ms, 0925ms total)
T35F4 001:648 JLINK_ClrBPEx(BPHandle = 0x00000006)  returns 0x00 (0000ms, 0925ms total)
T35F4 001:648 JLINK_ReadReg(R0)  returns 0x00000000 (0000ms, 0925ms total)
T35F4 001:649 JLINK_WriteMem(0x20000164, 0x0400 Bytes, ...) - Data: 55 43 05 60 02 E0 4B 4D 05 60 00 BF 00 BF 44 4D ... -- CPU_WriteMem(1024 bytes @ 0x20000164)  returns 0x400 (0004ms, 0929ms total)
T35F4 001:653 JLINK_WriteReg(R0, 0x08000800)  returns 0x00 (0000ms, 0929ms total)
T35F4 001:653 JLINK_WriteReg(R1, 0x00000400)  returns 0x00 (0000ms, 0929ms total)
T35F4 001:653 JLINK_WriteReg(R2, 0x20000164)  returns 0x00 (0000ms, 0929ms total)
T35F4 001:653 JLINK_WriteReg(R3, 0x00000000)  returns 0x00 (0000ms, 0929ms total)
T35F4 001:653 JLINK_WriteReg(R4, 0x00000000)  returns 0x00 (0000ms, 0929ms total)
T35F4 001:653 JLINK_WriteReg(R5, 0x00000000)  returns 0x00 (0000ms, 0929ms total)
T35F4 001:653 JLINK_WriteReg(R6, 0x00000000)  returns 0x00 (0000ms, 0929ms total)
T35F4 001:653 JLINK_WriteReg(R7, 0x00000000)  returns 0x00 (0001ms, 0930ms total)
T35F4 001:654 JLINK_WriteReg(R8, 0x00000000)  returns 0x00 (0000ms, 0930ms total)
T35F4 001:654 JLINK_WriteReg(R9, 0x20000160)  returns 0x00 (0000ms, 0930ms total)
T35F4 001:654 JLINK_WriteReg(R10, 0x00000000)  returns 0x00 (0000ms, 0930ms total)
T35F4 001:654 JLINK_WriteReg(R11, 0x00000000)  returns 0x00 (0000ms, 0930ms total)
T35F4 001:654 JLINK_WriteReg(R12, 0x00000000)  returns 0x00 (0000ms, 0930ms total)
T35F4 001:654 JLINK_WriteReg(R13 (SP), 0x20000800)  returns 0x00 (0000ms, 0930ms total)
T35F4 001:654 JLINK_WriteReg(R14, 0x20000001)  returns 0x00 (0000ms, 0930ms total)
T35F4 001:654 JLINK_WriteReg(R15 (PC), 0x200000F4)  returns 0x00 (0000ms, 0930ms total)
T35F4 001:654 JLINK_WriteReg(XPSR, 0x01000000)  returns 0x00 (0000ms, 0930ms total)
T35F4 001:654 JLINK_WriteReg(MSP, 0x20000800)  returns 0x00 (0000ms, 0930ms total)
T35F4 001:654 JLINK_WriteReg(PSP, 0x20000800)  returns 0x00 (0000ms, 0930ms total)
T35F4 001:654 JLINK_WriteReg(CFBP, 0x00000000)  returns 0x00 (0000ms, 0930ms total)
T35F4 001:654 JLINK_SetBPEx(Addr = 0x20000000, Type = 0xFFFFFFF2)  returns 0x00000007 (0001ms, 0931ms total)
T35F4 001:655 JLINK_Go() -- CPU_ReadMem(4 bytes @ 0xE0001000) (0003ms, 0934ms total)
T35F4 001:658 JLINK_IsHalted()  returns FALSE (0000ms, 0934ms total)
T35F4 001:677 JLINK_IsHalted()  returns FALSE (0001ms, 0935ms total)
T35F4 001:679 JLINK_IsHalted()  returns FALSE (0001ms, 0935ms total)
T35F4 001:685 JLINK_IsHalted()  returns FALSE (0001ms, 0935ms total)
T35F4 001:719 JLINK_IsHalted() -- CPU_ReadMem(2 bytes @ 0x20000000)  returns TRUE (0003ms, 0937ms total)
T35F4 001:722 JLINK_ReadReg(R15 (PC))  returns 0x20000000 (0000ms, 0934ms total)
T35F4 001:722 JLINK_ClrBPEx(BPHandle = 0x00000007)  returns 0x00 (0000ms, 0934ms total)
T35F4 001:722 JLINK_ReadReg(R0)  returns 0x00000000 (0000ms, 0934ms total)
T35F4 001:724 JLINK_WriteMem(0x20000164, 0x0400 Bytes, ...) - Data: 46 0D 36 01 03 FA 06 F6 B1 43 41 F0 70 61 22 B1 ... -- CPU_WriteMem(1024 bytes @ 0x20000164)  returns 0x400 (0005ms, 0939ms total)
T35F4 001:729 JLINK_WriteReg(R0, 0x08000C00)  returns 0x00 (0000ms, 0939ms total)
T35F4 001:729 JLINK_WriteReg(R1, 0x00000400)  returns 0x00 (0000ms, 0939ms total)
T35F4 001:729 JLINK_WriteReg(R2, 0x20000164)  returns 0x00 (0000ms, 0939ms total)
T35F4 001:729 JLINK_WriteReg(R3, 0x00000000)  returns 0x00 (0000ms, 0939ms total)
T35F4 001:729 JLINK_WriteReg(R4, 0x00000000)  returns 0x00 (0000ms, 0939ms total)
T35F4 001:729 JLINK_WriteReg(R5, 0x00000000)  returns 0x00 (0000ms, 0939ms total)
T35F4 001:729 JLINK_WriteReg(R6, 0x00000000)  returns 0x00 (0000ms, 0939ms total)
T35F4 001:729 JLINK_WriteReg(R7, 0x00000000)  returns 0x00 (0000ms, 0939ms total)
T35F4 001:729 JLINK_WriteReg(R8, 0x00000000)  returns 0x00 (0000ms, 0939ms total)
T35F4 001:729 JLINK_WriteReg(R9, 0x20000160)  returns 0x00 (0000ms, 0939ms total)
T35F4 001:729 JLINK_WriteReg(R10, 0x00000000)  returns 0x00 (0000ms, 0939ms total)
T35F4 001:729 JLINK_WriteReg(R11, 0x00000000)  returns 0x00 (0000ms, 0939ms total)
T35F4 001:729 JLINK_WriteReg(R12, 0x00000000)  returns 0x00 (0000ms, 0939ms total)
T35F4 001:729 JLINK_WriteReg(R13 (SP), 0x20000800)  returns 0x00 (0000ms, 0939ms total)
T35F4 001:729 JLINK_WriteReg(R14, 0x20000001)  returns 0x00 (0000ms, 0939ms total)
T35F4 001:729 JLINK_WriteReg(R15 (PC), 0x200000F4)  returns 0x00 (0000ms, 0939ms total)
T35F4 001:729 JLINK_WriteReg(XPSR, 0x01000000)  returns 0x00 (0000ms, 0939ms total)
T35F4 001:729 JLINK_WriteReg(MSP, 0x20000800)  returns 0x00 (0000ms, 0939ms total)
T35F4 001:729 JLINK_WriteReg(PSP, 0x20000800)  returns 0x00 (0001ms, 0940ms total)
T35F4 001:730 JLINK_WriteReg(CFBP, 0x00000000)  returns 0x00 (0000ms, 0940ms total)
T35F4 001:730 JLINK_SetBPEx(Addr = 0x20000000, Type = 0xFFFFFFF2)  returns 0x00000008 (0000ms, 0940ms total)
T35F4 001:730 JLINK_Go() -- CPU_ReadMem(4 bytes @ 0xE0001000) (0003ms, 0943ms total)
T35F4 001:733 JLINK_IsHalted()  returns FALSE (0001ms, 0944ms total)
T35F4 001:765 JLINK_IsHalted() -- CPU_ReadMem(2 bytes @ 0x20000000)  returns TRUE (0004ms, 0947ms total)
T35F4 001:769 JLINK_ReadReg(R15 (PC))  returns 0x20000000 (0000ms, 0943ms total)
T35F4 001:769 JLINK_ClrBPEx(BPHandle = 0x00000008)  returns 0x00 (0000ms, 0943ms total)
T35F4 001:769 JLINK_ReadReg(R0)  returns 0x00000000 (0000ms, 0943ms total)
T35F4 001:770 JLINK_WriteMem(0x20000164, 0x0400 Bytes, ...) - Data: 13 88 0B 40 0B B1 01 20 00 E0 00 20 70 47 01 F4 ... -- CPU_WriteMem(1024 bytes @ 0x20000164)  returns 0x400 (0004ms, 0947ms total)
T35F4 001:774 JLINK_WriteReg(R0, 0x08001000)  returns 0x00 (0000ms, 0947ms total)
T35F4 001:774 JLINK_WriteReg(R1, 0x00000400)  returns 0x00 (0000ms, 0947ms total)
T35F4 001:774 JLINK_WriteReg(R2, 0x20000164)  returns 0x00 (0000ms, 0947ms total)
T35F4 001:774 JLINK_WriteReg(R3, 0x00000000)  returns 0x00 (0000ms, 0947ms total)
T35F4 001:774 JLINK_WriteReg(R4, 0x00000000)  returns 0x00 (0000ms, 0947ms total)
T35F4 001:774 JLINK_WriteReg(R5, 0x00000000)  returns 0x00 (0000ms, 0947ms total)
T35F4 001:774 JLINK_WriteReg(R6, 0x00000000)  returns 0x00 (0000ms, 0947ms total)
T35F4 001:774 JLINK_WriteReg(R7, 0x00000000)  returns 0x00 (0000ms, 0947ms total)
T35F4 001:774 JLINK_WriteReg(R8, 0x00000000)  returns 0x00 (0000ms, 0947ms total)
T35F4 001:774 JLINK_WriteReg(R9, 0x20000160)  returns 0x00 (0000ms, 0947ms total)
T35F4 001:774 JLINK_WriteReg(R10, 0x00000000)  returns 0x00 (0000ms, 0947ms total)
T35F4 001:774 JLINK_WriteReg(R11, 0x00000000)  returns 0x00 (0000ms, 0947ms total)
T35F4 001:774 JLINK_WriteReg(R12, 0x00000000)  returns 0x00 (0000ms, 0947ms total)
T35F4 001:774 JLINK_WriteReg(R13 (SP), 0x20000800)  returns 0x00 (0001ms, 0948ms total)
T35F4 001:775 JLINK_WriteReg(R14, 0x20000001)  returns 0x00 (0000ms, 0948ms total)
T35F4 001:775 JLINK_WriteReg(R15 (PC), 0x200000F4)  returns 0x00 (0000ms, 0948ms total)
T35F4 001:775 JLINK_WriteReg(XPSR, 0x01000000)  returns 0x00 (0000ms, 0948ms total)
T35F4 001:775 JLINK_WriteReg(MSP, 0x20000800)  returns 0x00 (0000ms, 0948ms total)
T35F4 001:775 JLINK_WriteReg(PSP, 0x20000800)  returns 0x00 (0000ms, 0948ms total)
T35F4 001:775 JLINK_WriteReg(CFBP, 0x00000000)  returns 0x00 (0000ms, 0948ms total)
T35F4 001:775 JLINK_SetBPEx(Addr = 0x20000000, Type = 0xFFFFFFF2)  returns 0x00000009 (0000ms, 0948ms total)
T35F4 001:775 JLINK_Go() -- CPU_ReadMem(4 bytes @ 0xE0001000) (0003ms, 0951ms total)
T35F4 001:778 JLINK_IsHalted()  returns FALSE (0001ms, 0952ms total)
T35F4 001:788 JLINK_IsHalted()  returns FALSE (0001ms, 0952ms total)
T35F4 001:791 JLINK_IsHalted()  returns FALSE (0001ms, 0952ms total)
T35F4 001:797 JLINK_IsHalted()  returns FALSE (0000ms, 0951ms total)
T35F4 001:799 JLINK_IsHalted()  returns FALSE (0001ms, 0952ms total)
T35F4 001:805 JLINK_IsHalted()  returns FALSE (0001ms, 0952ms total)
T35F4 001:812 JLINK_IsHalted() -- CPU_ReadMem(2 bytes @ 0x20000000)  returns TRUE (0004ms, 0955ms total)
T35F4 001:816 JLINK_ReadReg(R15 (PC))  returns 0x20000000 (0000ms, 0951ms total)
T35F4 001:816 JLINK_ClrBPEx(BPHandle = 0x00000009)  returns 0x00 (0000ms, 0951ms total)
T35F4 001:816 JLINK_ReadReg(R0)  returns 0x00000000 (0000ms, 0951ms total)
T35F4 001:818 JLINK_WriteMem(0x20000164, 0x0400 Bytes, ...) - Data: 03 E0 FF F7 86 FF 03 46 52 1E 01 2B 01 D1 00 2A ... -- CPU_WriteMem(1024 bytes @ 0x20000164)  returns 0x400 (0004ms, 0955ms total)
T35F4 001:822 JLINK_WriteReg(R0, 0x08001400)  returns 0x00 (0000ms, 0955ms total)
T35F4 001:822 JLINK_WriteReg(R1, 0x00000400)  returns 0x00 (0000ms, 0955ms total)
T35F4 001:822 JLINK_WriteReg(R2, 0x20000164)  returns 0x00 (0000ms, 0955ms total)
T35F4 001:822 JLINK_WriteReg(R3, 0x00000000)  returns 0x00 (0000ms, 0955ms total)
T35F4 001:822 JLINK_WriteReg(R4, 0x00000000)  returns 0x00 (0000ms, 0955ms total)
T35F4 001:822 JLINK_WriteReg(R5, 0x00000000)  returns 0x00 (0000ms, 0955ms total)
T35F4 001:822 JLINK_WriteReg(R6, 0x00000000)  returns 0x00 (0001ms, 0956ms total)
T35F4 001:823 JLINK_WriteReg(R7, 0x00000000)  returns 0x00 (0000ms, 0956ms total)
T35F4 001:823 JLINK_WriteReg(R8, 0x00000000)  returns 0x00 (0000ms, 0956ms total)
T35F4 001:823 JLINK_WriteReg(R9, 0x20000160)  returns 0x00 (0000ms, 0956ms total)
T35F4 001:823 JLINK_WriteReg(R10, 0x00000000)  returns 0x00 (0000ms, 0956ms total)
T35F4 001:823 JLINK_WriteReg(R11, 0x00000000)  returns 0x00 (0000ms, 0956ms total)
T35F4 001:823 JLINK_WriteReg(R12, 0x00000000)  returns 0x00 (0000ms, 0956ms total)
T35F4 001:823 JLINK_WriteReg(R13 (SP), 0x20000800)  returns 0x00 (0000ms, 0956ms total)
T35F4 001:823 JLINK_WriteReg(R14, 0x20000001)  returns 0x00 (0000ms, 0956ms total)
T35F4 001:823 JLINK_WriteReg(R15 (PC), 0x200000F4)  returns 0x00 (0000ms, 0956ms total)
T35F4 001:823 JLINK_WriteReg(XPSR, 0x01000000)  returns 0x00 (0000ms, 0956ms total)
T35F4 001:823 JLINK_WriteReg(MSP, 0x20000800)  returns 0x00 (0000ms, 0956ms total)
T35F4 001:823 JLINK_WriteReg(PSP, 0x20000800)  returns 0x00 (0000ms, 0956ms total)
T35F4 001:823 JLINK_WriteReg(CFBP, 0x00000000)  returns 0x00 (0000ms, 0956ms total)
T35F4 001:823 JLINK_SetBPEx(Addr = 0x20000000, Type = 0xFFFFFFF2)  returns 0x0000000A (0000ms, 0956ms total)
T35F4 001:823 JLINK_Go() -- CPU_ReadMem(4 bytes @ 0xE0001000) (0003ms, 0959ms total)
T35F4 001:826 JLINK_IsHalted()  returns FALSE (0001ms, 0960ms total)
T35F4 001:835 JLINK_IsHalted()  returns FALSE (0000ms, 0959ms total)
T35F4 001:837 JLINK_IsHalted()  returns FALSE (0001ms, 0960ms total)
T35F4 001:839 JLINK_IsHalted()  returns FALSE (0001ms, 0960ms total)
T35F4 001:877 JLINK_IsHalted() -- CPU_ReadMem(2 bytes @ 0x20000000)  returns TRUE (0011ms, 0970ms total)
T35F4 001:888 JLINK_ReadReg(R15 (PC))  returns 0x20000000 (0000ms, 0959ms total)
T35F4 001:888 JLINK_ClrBPEx(BPHandle = 0x0000000A)  returns 0x00 (0000ms, 0959ms total)
T35F4 001:888 JLINK_ReadReg(R0)  returns 0x00000000 (0000ms, 0959ms total)
T35F4 001:889 JLINK_WriteMem(0x20000164, 0x0400 Bytes, ...) - Data: 00 20 06 E0 11 4A D2 68 0A 40 0A B1 01 20 00 E0 ... -- CPU_WriteMem(1024 bytes @ 0x20000164)  returns 0x400 (0004ms, 0963ms total)
T35F4 001:893 JLINK_WriteReg(R0, 0x08001800)  returns 0x00 (0000ms, 0963ms total)
T35F4 001:893 JLINK_WriteReg(R1, 0x00000400)  returns 0x00 (0000ms, 0963ms total)
T35F4 001:893 JLINK_WriteReg(R2, 0x20000164)  returns 0x00 (0000ms, 0963ms total)
T35F4 001:893 JLINK_WriteReg(R3, 0x00000000)  returns 0x00 (0000ms, 0963ms total)
T35F4 001:893 JLINK_WriteReg(R4, 0x00000000)  returns 0x00 (0000ms, 0963ms total)
T35F4 001:893 JLINK_WriteReg(R5, 0x00000000)  returns 0x00 (0000ms, 0963ms total)
T35F4 001:893 JLINK_WriteReg(R6, 0x00000000)  returns 0x00 (0000ms, 0963ms total)
T35F4 001:893 JLINK_WriteReg(R7, 0x00000000)  returns 0x00 (0000ms, 0963ms total)
T35F4 001:893 JLINK_WriteReg(R8, 0x00000000)  returns 0x00 (0000ms, 0963ms total)
T35F4 001:893 JLINK_WriteReg(R9, 0x20000160)  returns 0x00 (0000ms, 0963ms total)
T35F4 001:893 JLINK_WriteReg(R10, 0x00000000)  returns 0x00 (0000ms, 0963ms total)
T35F4 001:893 JLINK_WriteReg(R11, 0x00000000)  returns 0x00 (0000ms, 0963ms total)
T35F4 001:893 JLINK_WriteReg(R12, 0x00000000)  returns 0x00 (0000ms, 0963ms total)
T35F4 001:893 JLINK_WriteReg(R13 (SP), 0x20000800)  returns 0x00 (0000ms, 0963ms total)
T35F4 001:893 JLINK_WriteReg(R14, 0x20000001)  returns 0x00 (0000ms, 0963ms total)
T35F4 001:893 JLINK_WriteReg(R15 (PC), 0x200000F4)  returns 0x00 (0000ms, 0963ms total)
T35F4 001:893 JLINK_WriteReg(XPSR, 0x01000000)  returns 0x00 (0000ms, 0963ms total)
T35F4 001:893 JLINK_WriteReg(MSP, 0x20000800)  returns 0x00 (0000ms, 0963ms total)
T35F4 001:893 JLINK_WriteReg(PSP, 0x20000800)  returns 0x00 (0000ms, 0963ms total)
T35F4 001:893 JLINK_WriteReg(CFBP, 0x00000000)  returns 0x00 (0001ms, 0964ms total)
T35F4 001:894 JLINK_SetBPEx(Addr = 0x20000000, Type = 0xFFFFFFF2)  returns 0x0000000B (0000ms, 0964ms total)
T35F4 001:894 JLINK_Go() -- CPU_ReadMem(4 bytes @ 0xE0001000) (0002ms, 0966ms total)
T35F4 001:896 JLINK_IsHalted()  returns FALSE (0001ms, 0967ms total)
T35F4 001:907 JLINK_IsHalted()  returns FALSE (0001ms, 0967ms total)
T35F4 001:910 JLINK_IsHalted()  returns FALSE (0001ms, 0967ms total)
T35F4 001:918 JLINK_IsHalted()  returns FALSE (0001ms, 0967ms total)
T35F4 001:923 JLINK_IsHalted()  returns FALSE (0001ms, 0967ms total)
T35F4 001:926 JLINK_IsHalted() -- CPU_ReadMem(2 bytes @ 0x20000000)  returns TRUE (0004ms, 0970ms total)
T35F4 001:930 JLINK_ReadReg(R15 (PC))  returns 0x20000000 (0000ms, 0966ms total)
T35F4 001:930 JLINK_ClrBPEx(BPHandle = 0x0000000B)  returns 0x00 (0000ms, 0966ms total)
T35F4 001:930 JLINK_ReadReg(R0)  returns 0x00000000 (0000ms, 0966ms total)
T35F4 001:931 JLINK_WriteMem(0x20000164, 0x0400 Bytes, ...) - Data: 00 93 00 9B 1B 68 0B 40 0B B1 01 20 00 E0 00 20 ... -- CPU_WriteMem(1024 bytes @ 0x20000164)  returns 0x400 (0004ms, 0970ms total)
T35F4 001:935 JLINK_WriteReg(R0, 0x08001C00)  returns 0x00 (0001ms, 0971ms total)
T35F4 001:936 JLINK_WriteReg(R1, 0x00000400)  returns 0x00 (0000ms, 0971ms total)
T35F4 001:936 JLINK_WriteReg(R2, 0x20000164)  returns 0x00 (0000ms, 0971ms total)
T35F4 001:936 JLINK_WriteReg(R3, 0x00000000)  returns 0x00 (0000ms, 0971ms total)
T35F4 001:936 JLINK_WriteReg(R4, 0x00000000)  returns 0x00 (0000ms, 0971ms total)
T35F4 001:936 JLINK_WriteReg(R5, 0x00000000)  returns 0x00 (0000ms, 0971ms total)
T35F4 001:936 JLINK_WriteReg(R6, 0x00000000)  returns 0x00 (0000ms, 0971ms total)
T35F4 001:936 JLINK_WriteReg(R7, 0x00000000)  returns 0x00 (0000ms, 0971ms total)
T35F4 001:936 JLINK_WriteReg(R8, 0x00000000)  returns 0x00 (0000ms, 0971ms total)
T35F4 001:936 JLINK_WriteReg(R9, 0x20000160)  returns 0x00 (0000ms, 0971ms total)
T35F4 001:936 JLINK_WriteReg(R10, 0x00000000)  returns 0x00 (0000ms, 0971ms total)
T35F4 001:936 JLINK_WriteReg(R11, 0x00000000)  returns 0x00 (0000ms, 0971ms total)
T35F4 001:936 JLINK_WriteReg(R12, 0x00000000)  returns 0x00 (0000ms, 0971ms total)
T35F4 001:936 JLINK_WriteReg(R13 (SP), 0x20000800)  returns 0x00 (0000ms, 0971ms total)
T35F4 001:936 JLINK_WriteReg(R14, 0x20000001)  returns 0x00 (0000ms, 0971ms total)
T35F4 001:936 JLINK_WriteReg(R15 (PC), 0x200000F4)  returns 0x00 (0000ms, 0971ms total)
T35F4 001:936 JLINK_WriteReg(XPSR, 0x01000000)  returns 0x00 (0000ms, 0971ms total)
T35F4 001:936 JLINK_WriteReg(MSP, 0x20000800)  returns 0x00 (0000ms, 0971ms total)
T35F4 001:936 JLINK_WriteReg(PSP, 0x20000800)  returns 0x00 (0000ms, 0971ms total)
T35F4 001:936 JLINK_WriteReg(CFBP, 0x00000000)  returns 0x00 (0000ms, 0971ms total)
T35F4 001:936 JLINK_SetBPEx(Addr = 0x20000000, Type = 0xFFFFFFF2)  returns 0x0000000C (0000ms, 0971ms total)
T35F4 001:936 JLINK_Go() -- CPU_ReadMem(4 bytes @ 0xE0001000) (0003ms, 0974ms total)
T35F4 001:939 JLINK_IsHalted()  returns FALSE (0001ms, 0975ms total)
T35F4 001:989 JLINK_IsHalted() -- CPU_ReadMem(2 bytes @ 0x20000000)  returns TRUE (0004ms, 0978ms total)
T35F4 001:993 JLINK_ReadReg(R15 (PC))  returns 0x20000000 (0000ms, 0974ms total)
T35F4 001:993 JLINK_ClrBPEx(BPHandle = 0x0000000C)  returns 0x00 (0000ms, 0974ms total)
T35F4 001:993 JLINK_ReadReg(R0)  returns 0x00000000 (0000ms, 0974ms total)
T35F4 001:994 JLINK_WriteMem(0x20000164, 0x0400 Bytes, ...) - Data: 4F F6 FF 35 2A 40 8D 88 06 EA 05 25 2A 43 4E F6 ... -- CPU_WriteMem(1024 bytes @ 0x20000164)  returns 0x400 (0004ms, 0978ms total)
T35F4 001:998 JLINK_WriteReg(R0, 0x08002000)  returns 0x00 (0000ms, 0978ms total)
T35F4 001:998 JLINK_WriteReg(R1, 0x00000400)  returns 0x00 (0000ms, 0978ms total)
T35F4 001:998 JLINK_WriteReg(R2, 0x20000164)  returns 0x00 (0000ms, 0978ms total)
T35F4 001:998 JLINK_WriteReg(R3, 0x00000000)  returns 0x00 (0000ms, 0978ms total)
T35F4 001:998 JLINK_WriteReg(R4, 0x00000000)  returns 0x00 (0000ms, 0978ms total)
T35F4 001:998 JLINK_WriteReg(R5, 0x00000000)  returns 0x00 (0000ms, 0978ms total)
T35F4 001:998 JLINK_WriteReg(R6, 0x00000000)  returns 0x00 (0000ms, 0978ms total)
T35F4 001:998 JLINK_WriteReg(R7, 0x00000000)  returns 0x00 (0000ms, 0978ms total)
T35F4 001:998 JLINK_WriteReg(R8, 0x00000000)  returns 0x00 (0000ms, 0978ms total)
T35F4 001:998 JLINK_WriteReg(R9, 0x20000160)  returns 0x00 (0000ms, 0978ms total)
T35F4 001:998 JLINK_WriteReg(R10, 0x00000000)  returns 0x00 (0001ms, 0979ms total)
T35F4 001:999 JLINK_WriteReg(R11, 0x00000000)  returns 0x00 (0000ms, 0979ms total)
T35F4 001:999 JLINK_WriteReg(R12, 0x00000000)  returns 0x00 (0000ms, 0979ms total)
T35F4 001:999 JLINK_WriteReg(R13 (SP), 0x20000800)  returns 0x00 (0000ms, 0979ms total)
T35F4 001:999 JLINK_WriteReg(R14, 0x20000001)  returns 0x00 (0000ms, 0979ms total)
T35F4 001:999 JLINK_WriteReg(R15 (PC), 0x200000F4)  returns 0x00 (0000ms, 0979ms total)
T35F4 001:999 JLINK_WriteReg(XPSR, 0x01000000)  returns 0x00 (0000ms, 0979ms total)
T35F4 001:999 JLINK_WriteReg(MSP, 0x20000800)  returns 0x00 (0000ms, 0979ms total)
T35F4 001:999 JLINK_WriteReg(PSP, 0x20000800)  returns 0x00 (0000ms, 0979ms total)
T35F4 001:999 JLINK_WriteReg(CFBP, 0x00000000)  returns 0x00 (0000ms, 0979ms total)
T35F4 001:999 JLINK_SetBPEx(Addr = 0x20000000, Type = 0xFFFFFFF2)  returns 0x0000000D (0000ms, 0979ms total)
T35F4 001:999 JLINK_Go() -- CPU_ReadMem(4 bytes @ 0xE0001000) (0003ms, 0982ms total)
T35F4 002:002 JLINK_IsHalted()  returns FALSE (0001ms, 0983ms total)
T35F4 002:007 JLINK_IsHalted()  returns FALSE (0001ms, 0983ms total)
T35F4 002:016 JLINK_IsHalted()  returns FALSE (0000ms, 0982ms total)
T35F4 002:022 JLINK_IsHalted()  returns FALSE (0001ms, 0983ms total)
T35F4 002:029 JLINK_IsHalted()  returns FALSE (0001ms, 0983ms total)
T35F4 002:031 JLINK_IsHalted()  returns FALSE (0001ms, 0983ms total)
T35F4 002:034 JLINK_IsHalted() -- CPU_ReadMem(2 bytes @ 0x20000000)  returns TRUE (0003ms, 0985ms total)
T35F4 002:037 JLINK_ReadReg(R15 (PC))  returns 0x20000000 (0000ms, 0982ms total)
T35F4 002:037 JLINK_ClrBPEx(BPHandle = 0x0000000D)  returns 0x00 (0000ms, 0982ms total)
T35F4 002:037 JLINK_ReadReg(R0)  returns 0x00000000 (0000ms, 0982ms total)
T35F4 002:039 JLINK_WriteMem(0x20000164, 0x0400 Bytes, ...) - Data: 3A 46 31 46 28 46 FF F7 12 FF E1 88 28 46 FF F7 ... -- CPU_WriteMem(1024 bytes @ 0x20000164)  returns 0x400 (0004ms, 0986ms total)
T35F4 002:043 JLINK_WriteReg(R0, 0x08002400)  returns 0x00 (0000ms, 0986ms total)
T35F4 002:043 JLINK_WriteReg(R1, 0x00000400)  returns 0x00 (0000ms, 0986ms total)
T35F4 002:043 JLINK_WriteReg(R2, 0x20000164)  returns 0x00 (0000ms, 0986ms total)
T35F4 002:043 JLINK_WriteReg(R3, 0x00000000)  returns 0x00 (0000ms, 0986ms total)
T35F4 002:044 JLINK_WriteReg(R4, 0x00000000)  returns 0x00 (0000ms, 0987ms total)
T35F4 002:044 JLINK_WriteReg(R5, 0x00000000)  returns 0x00 (0000ms, 0987ms total)
T35F4 002:044 JLINK_WriteReg(R6, 0x00000000)  returns 0x00 (0000ms, 0987ms total)
T35F4 002:044 JLINK_WriteReg(R7, 0x00000000)  returns 0x00 (0000ms, 0987ms total)
T35F4 002:044 JLINK_WriteReg(R8, 0x00000000)  returns 0x00 (0000ms, 0987ms total)
T35F4 002:044 JLINK_WriteReg(R9, 0x20000160)  returns 0x00 (0000ms, 0987ms total)
T35F4 002:044 JLINK_WriteReg(R10, 0x00000000)  returns 0x00 (0000ms, 0987ms total)
T35F4 002:044 JLINK_WriteReg(R11, 0x00000000)  returns 0x00 (0000ms, 0987ms total)
T35F4 002:044 JLINK_WriteReg(R12, 0x00000000)  returns 0x00 (0000ms, 0987ms total)
T35F4 002:044 JLINK_WriteReg(R13 (SP), 0x20000800)  returns 0x00 (0000ms, 0987ms total)
T35F4 002:044 JLINK_WriteReg(R14, 0x20000001)  returns 0x00 (0000ms, 0987ms total)
T35F4 002:044 JLINK_WriteReg(R15 (PC), 0x200000F4)  returns 0x00 (0000ms, 0987ms total)
T35F4 002:044 JLINK_WriteReg(XPSR, 0x01000000)  returns 0x00 (0000ms, 0987ms total)
T35F4 002:044 JLINK_WriteReg(MSP, 0x20000800)  returns 0x00 (0000ms, 0987ms total)
T35F4 002:044 JLINK_WriteReg(PSP, 0x20000800)  returns 0x00 (0000ms, 0987ms total)
T35F4 002:044 JLINK_WriteReg(CFBP, 0x00000000)  returns 0x00 (0000ms, 0987ms total)
T35F4 002:044 JLINK_SetBPEx(Addr = 0x20000000, Type = 0xFFFFFFF2)  returns 0x0000000E (0000ms, 0987ms total)
T35F4 002:044 JLINK_Go() -- CPU_ReadMem(4 bytes @ 0xE0001000) (0003ms, 0990ms total)
T35F4 002:047 JLINK_IsHalted()  returns FALSE (0001ms, 0991ms total)
T35F4 002:054 JLINK_IsHalted()  returns FALSE (0000ms, 0990ms total)
T35F4 002:063 JLINK_IsHalted()  returns FALSE (0000ms, 0990ms total)
T35F4 002:093 JLINK_IsHalted() -- CPU_ReadMem(2 bytes @ 0x20000000)  returns TRUE (0003ms, 0993ms total)
T35F4 002:096 JLINK_ReadReg(R15 (PC))  returns 0x20000000 (0000ms, 0990ms total)
T35F4 002:096 JLINK_ClrBPEx(BPHandle = 0x0000000E)  returns 0x00 (0000ms, 0990ms total)
T35F4 002:096 JLINK_ReadReg(R0)  returns 0x00000000 (0001ms, 0991ms total)
T35F4 002:098 JLINK_WriteMem(0x20000164, 0x0400 Bytes, ...) - Data: 4F F6 7F 73 19 40 11 43 81 83 70 47 0A 46 00 21 ... -- CPU_WriteMem(1024 bytes @ 0x20000164)  returns 0x400 (0004ms, 0995ms total)
T35F4 002:102 JLINK_WriteReg(R0, 0x08002800)  returns 0x00 (0000ms, 0995ms total)
T35F4 002:102 JLINK_WriteReg(R1, 0x00000400)  returns 0x00 (0000ms, 0995ms total)
T35F4 002:102 JLINK_WriteReg(R2, 0x20000164)  returns 0x00 (0000ms, 0995ms total)
T35F4 002:102 JLINK_WriteReg(R3, 0x00000000)  returns 0x00 (0000ms, 0995ms total)
T35F4 002:102 JLINK_WriteReg(R4, 0x00000000)  returns 0x00 (0000ms, 0995ms total)
T35F4 002:102 JLINK_WriteReg(R5, 0x00000000)  returns 0x00 (0000ms, 0995ms total)
T35F4 002:102 JLINK_WriteReg(R6, 0x00000000)  returns 0x00 (0000ms, 0995ms total)
T35F4 002:103 JLINK_WriteReg(R7, 0x00000000)  returns 0x00 (0000ms, 0996ms total)
T35F4 002:103 JLINK_WriteReg(R8, 0x00000000)  returns 0x00 (0000ms, 0996ms total)
T35F4 002:103 JLINK_WriteReg(R9, 0x20000160)  returns 0x00 (0000ms, 0996ms total)
T35F4 002:103 JLINK_WriteReg(R10, 0x00000000)  returns 0x00 (0000ms, 0996ms total)
T35F4 002:103 JLINK_WriteReg(R11, 0x00000000)  returns 0x00 (0000ms, 0996ms total)
T35F4 002:103 JLINK_WriteReg(R12, 0x00000000)  returns 0x00 (0000ms, 0996ms total)
T35F4 002:103 JLINK_WriteReg(R13 (SP), 0x20000800)  returns 0x00 (0000ms, 0996ms total)
T35F4 002:103 JLINK_WriteReg(R14, 0x20000001)  returns 0x00 (0000ms, 0996ms total)
T35F4 002:103 JLINK_WriteReg(R15 (PC), 0x200000F4)  returns 0x00 (0000ms, 0996ms total)
T35F4 002:103 JLINK_WriteReg(XPSR, 0x01000000)  returns 0x00 (0000ms, 0996ms total)
T35F4 002:103 JLINK_WriteReg(MSP, 0x20000800)  returns 0x00 (0000ms, 0996ms total)
T35F4 002:103 JLINK_WriteReg(PSP, 0x20000800)  returns 0x00 (0000ms, 0996ms total)
T35F4 002:103 JLINK_WriteReg(CFBP, 0x00000000)  returns 0x00 (0000ms, 0996ms total)
T35F4 002:103 JLINK_SetBPEx(Addr = 0x20000000, Type = 0xFFFFFFF2)  returns 0x0000000F (0000ms, 0996ms total)
T35F4 002:103 JLINK_Go() -- CPU_ReadMem(4 bytes @ 0xE0001000) (0003ms, 0999ms total)
T35F4 002:106 JLINK_IsHalted()  returns FALSE (0001ms, 1000ms total)
T35F4 002:115 JLINK_IsHalted()  returns FALSE (0000ms, 0999ms total)
T35F4 002:117 JLINK_IsHalted()  returns FALSE (0000ms, 0999ms total)
T35F4 002:119 JLINK_IsHalted()  returns FALSE (0000ms, 0999ms total)
T35F4 002:127 JLINK_IsHalted()  returns FALSE (0001ms, 1000ms total)
T35F4 002:142 JLINK_IsHalted() -- CPU_ReadMem(2 bytes @ 0x20000000)  returns TRUE (0003ms, 1002ms total)
T35F4 002:145 JLINK_ReadReg(R15 (PC))  returns 0x20000000 (0001ms, 1000ms total)
T35F4 002:146 JLINK_ClrBPEx(BPHandle = 0x0000000F)  returns 0x00 (0000ms, 1000ms total)
T35F4 002:146 JLINK_ReadReg(R0)  returns 0x00000000 (0000ms, 1000ms total)
T35F4 002:147 JLINK_WriteMem(0x20000164, 0x0400 Bytes, ...) - Data: 14 4B 43 43 12 4C 23 60 03 E0 10 4B 43 43 10 4C ... -- CPU_WriteMem(1024 bytes @ 0x20000164)  returns 0x400 (0004ms, 1004ms total)
T35F4 002:151 JLINK_WriteReg(R0, 0x08002C00)  returns 0x00 (0000ms, 1004ms total)
T35F4 002:151 JLINK_WriteReg(R1, 0x00000400)  returns 0x00 (0001ms, 1005ms total)
T35F4 002:152 JLINK_WriteReg(R2, 0x20000164)  returns 0x00 (0000ms, 1005ms total)
T35F4 002:152 JLINK_WriteReg(R3, 0x00000000)  returns 0x00 (0000ms, 1005ms total)
T35F4 002:152 JLINK_WriteReg(R4, 0x00000000)  returns 0x00 (0000ms, 1005ms total)
T35F4 002:152 JLINK_WriteReg(R5, 0x00000000)  returns 0x00 (0000ms, 1005ms total)
T35F4 002:152 JLINK_WriteReg(R6, 0x00000000)  returns 0x00 (0000ms, 1005ms total)
T35F4 002:152 JLINK_WriteReg(R7, 0x00000000)  returns 0x00 (0000ms, 1005ms total)
T35F4 002:152 JLINK_WriteReg(R8, 0x00000000)  returns 0x00 (0000ms, 1005ms total)
T35F4 002:152 JLINK_WriteReg(R9, 0x20000160)  returns 0x00 (0000ms, 1005ms total)
T35F4 002:152 JLINK_WriteReg(R10, 0x00000000)  returns 0x00 (0000ms, 1005ms total)
T35F4 002:152 JLINK_WriteReg(R11, 0x00000000)  returns 0x00 (0000ms, 1005ms total)
T35F4 002:152 JLINK_WriteReg(R12, 0x00000000)  returns 0x00 (0000ms, 1005ms total)
T35F4 002:152 JLINK_WriteReg(R13 (SP), 0x20000800)  returns 0x00 (0000ms, 1005ms total)
T35F4 002:152 JLINK_WriteReg(R14, 0x20000001)  returns 0x00 (0000ms, 1005ms total)
T35F4 002:152 JLINK_WriteReg(R15 (PC), 0x200000F4)  returns 0x00 (0000ms, 1005ms total)
T35F4 002:152 JLINK_WriteReg(XPSR, 0x01000000)  returns 0x00 (0000ms, 1005ms total)
T35F4 002:152 JLINK_WriteReg(MSP, 0x20000800)  returns 0x00 (0000ms, 1005ms total)
T35F4 002:152 JLINK_WriteReg(PSP, 0x20000800)  returns 0x00 (0000ms, 1005ms total)
T35F4 002:152 JLINK_WriteReg(CFBP, 0x00000000)  returns 0x00 (0000ms, 1005ms total)
T35F4 002:152 JLINK_SetBPEx(Addr = 0x20000000, Type = 0xFFFFFFF2)  returns 0x00000010 (0000ms, 1005ms total)
T35F4 002:152 JLINK_Go() -- CPU_ReadMem(4 bytes @ 0xE0001000) (0003ms, 1008ms total)
T35F4 002:156 JLINK_IsHalted()  returns FALSE (0000ms, 1009ms total)
T35F4 002:158 JLINK_IsHalted()  returns FALSE (0001ms, 1010ms total)
T35F4 002:162 JLINK_IsHalted()  returns FALSE (0001ms, 1010ms total)
T35F4 002:165 JLINK_IsHalted()  returns FALSE (0000ms, 1009ms total)
